Frequency [Hz]	Re(Z)	Im(Z)
1.000000e-03	3.479194e+00	1.015368e+05
1.000000e-01	3.623204e+01	1.015056e+05
1.000000e+00	1.254966e+02	1.014307e+05
1.122018e+00	1.339337e+02	1.014242e+05
1.258925e+00	1.429927e+02	1.014173e+05
1.412538e+00	1.527251e+02	1.014100e+05
1.584893e+00	1.631875e+02	1.014023e+05
1.778279e+00	1.744418e+02	1.013941e+05
1.995262e+00	1.865558e+02	1.013854e+05
2.238721e+00	1.996039e+02	1.013763e+05
2.511886e+00	2.136678e+02	1.013665e+05
2.818383e+00	2.288369e+02	1.013562e+05
3.162278e+00	2.452099e+02	1.013453e+05
3.548134e+00	2.628952e+02	1.013337e+05
3.981072e+00	2.820118e+02	1.013214e+05
4.466836e+00	3.026913e+02	1.013084e+05
5.011872e+00	3.250784e+02	1.012946e+05
5.623413e+00	3.493326e+02	1.012800e+05
6.309573e+00	3.756300e+02	1.012646e+05
7.079458e+00	4.041653e+02	1.012481e+05
7.943282e+00	4.351531e+02	1.012307e+05
8.912509e+00	4.688309e+02	1.012123e+05
1.000000e+01	5.054614e+02	1.011927e+05
1.122018e+01	5.453352e+02	1.011719e+05
1.258925e+01	5.887739e+02	1.011499e+05
1.412538e+01	6.361339e+02	1.011265e+05
1.584893e+01	6.878100e+02	1.011017e+05
1.778279e+01	7.442398e+02	1.010753e+05
1.995262e+01	8.059085e+02	1.010473e+05
2.238721e+01	8.733546e+02	1.010175e+05
2.511886e+01	9.471755e+02	1.009859e+05
2.818383e+01	1.028034e+03	1.009522e+05
3.162278e+01	1.116667e+03	1.009164e+05
3.548134e+01	1.213891e+03	1.008782e+05
3.981072e+01	1.320616e+03	1.008375e+05
4.466836e+01	1.437849e+03	1.007941e+05
5.011872e+01	1.566713e+03	1.007477e+05
5.623413e+01	1.708452e+03	1.006980e+05
6.309573e+01	1.864451e+03	1.006449e+05
7.079458e+01	2.036248e+03	1.005878e+05
7.943282e+01	2.225551e+03	1.005265e+05
8.912509e+01	2.434259e+03	1.004605e+05
1.000000e+02	2.664479e+03	1.003892e+05
1.122018e+02	2.918550e+03	1.003121e+05
1.258925e+02	3.199069e+03	1.002284e+05
1.412538e+02	3.508913e+03	1.001373e+05
1.584893e+02	3.851269e+03	1.000377e+05
1.778279e+02	4.229665e+03	9.992844e+04
1.995262e+02	4.647999e+03	9.980811e+04
2.238721e+02	5.110568e+03	9.967497e+04
2.511886e+02	5.622106e+03	9.952695e+04
2.818383e+02	6.187804e+03	9.936154e+04
3.162278e+02	6.813342e+03	9.917572e+04
3.548134e+02	7.504904e+03	9.896583e+04
3.981072e+02	8.269188e+03	9.872745e+04
4.466836e+02	9.113390e+03	9.845521e+04
5.011872e+02	1.004518e+04	9.814259e+04
5.623413e+02	1.107261e+04	9.778173e+04
6.309573e+02	1.220402e+04	9.736311e+04
7.079458e+02	1.344784e+04	9.687528e+04
7.943282e+02	1.481228e+04	9.630448e+04
8.912509e+02	1.630498e+04	9.563431e+04
1.000000e+03	1.793242e+04	9.484533e+04
1.122018e+03	1.969915e+04	9.391477e+04
1.258925e+03	2.160684e+04	9.281623e+04
1.412538e+03	2.365305e+04	9.151962e+04
1.584893e+03	2.582964e+04	8.999141e+04
1.778279e+03	2.812106e+04	8.819529e+04
1.995262e+03	3.050242e+04	8.609343e+04
2.238721e+03	3.293761e+04	8.364867e+04
2.511886e+03	3.537782e+04	8.082756e+04
2.818383e+03	3.776080e+04	7.760449e+04
3.162278e+03	4.001165e+04	7.396663e+04
3.548134e+03	4.204544e+04	6.991918e+04
3.981072e+03	4.377227e+04	6.549016e+04
4.466836e+03	4.510460e+04	6.073342e+04
5.011872e+03	4.596624e+04	5.572886e+04
5.623413e+03	4.630162e+04	5.057887e+04
6.309573e+03	4.608345e+04	4.540080e+04
7.079458e+03	4.531707e+04	4.031667e+04
7.943282e+03	4.404020e+04	3.544167e+04
8.912509e+03	4.231821e+04	3.087386e+04
1.000000e+04	4.023594e+04	2.668682e+04
1.122018e+04	3.788793e+04	2.292641e+04
1.258925e+04	3.536907e+04	1.961142e+04
1.412538e+04	3.276694e+04	1.673727e+04
1.584893e+04	3.015691e+04	1.428146e+04
1.778279e+04	2.759963e+04	1.220941e+04
1.995262e+04	2.514079e+04	1.047984e+04
2.238721e+04	2.281224e+04	9.049161e+03
2.511886e+04	2.063401e+04	7.874573e+03
2.818383e+04	1.861656e+04	6.916171e+03
3.162278e+04	1.676308e+04	6.138059e+03
3.548134e+04	1.507140e+04	5.508818e+03
3.981072e+04	1.353571e+04	5.001504e+03
4.466836e+04	1.214785e+04	4.593373e+03
5.011872e+04	1.089830e+04	4.265456e+03
5.623413e+04	9.776901e+03	4.002070e+03
6.309573e+04	8.773409e+03	3.790335e+03
7.079458e+04	7.877800e+03	3.619715e+03
7.943282e+04	7.080516e+03	3.481601e+03
8.912509e+04	6.372588e+03	3.368961e+03
1.000000e+05	5.745702e+03	3.276023e+03
1.122018e+05	5.192211e+03	3.198017e+03
1.258925e+05	4.705118e+03	3.130961e+03
1.412538e+05	4.278025e+03	3.071478e+03
1.584893e+05	3.905074e+03	3.016656e+03
1.778279e+05	3.580868e+03	2.963935e+03
1.995262e+05	3.300377e+03	2.911029e+03
2.238721e+05	3.058848e+03	2.855885e+03
2.511886e+05	2.851710e+03	2.796668e+03
2.818383e+05	2.674492e+03	2.731796e+03
3.162278e+05	2.522761e+03	2.660000e+03
3.548134e+05	2.392109e+03	2.580422e+03
3.981072e+05	2.278183e+03	2.492721e+03
4.466836e+05	2.176796e+03	2.397167e+03
5.011872e+05	2.084082e+03	2.294686e+03
5.623413e+05	1.996696e+03	2.186827e+03
6.309573e+05	1.912010e+03	2.075633e+03
7.079458e+05	1.828234e+03	1.963418e+03
7.943282e+05	1.744456e+03	1.852494e+03
8.912509e+05	1.660548e+03	1.744908e+03
1.000000e+06	1.576981e+03	1.642234e+03
1.122018e+06	1.494577e+03	1.545464e+03
1.258925e+06	1.414267e+03	1.455018e+03
1.412538e+06	1.336883e+03	1.370832e+03
1.584893e+06	1.263035e+03	1.292507e+03
1.778279e+06	1.193058e+03	1.219464e+03
1.995262e+06	1.127028e+03	1.151091e+03
2.238721e+06	1.064826e+03	1.086837e+03
2.511886e+06	1.006218e+03	1.026263e+03
2.818383e+06	9.509325e+02	9.690472e+02
3.162278e+06	8.987094e+02	9.149639e+02
3.548134e+06	8.493285e+02	8.638438e+02
3.981072e+06	8.026114e+02	8.155446e+02
4.466836e+06	7.584112e+02	7.699302e+02
5.011872e+06	7.165992e+02	7.268635e+02
5.623413e+06	6.770554e+02	6.862070e+02
6.309573e+06	6.396638e+02	6.478262e+02
7.079458e+06	6.043120e+02	6.115926e+02
7.943282e+06	5.708916e+02	5.773853e+02
8.912509e+06	5.392994e+02	5.450909e+02
1.000000e+07	5.094373e+02	5.146022e+02
1.122018e+07	4.812126e+02	4.858186e+02
1.258925e+07	4.545373e+02	4.586446e+02
1.412538e+07	4.293278e+02	4.329904e+02
1.584893e+07	4.055049e+02	4.087709e+02
1.778279e+07	3.829938e+02	3.859061e+02
1.995262e+07	3.617232e+02	3.643200e+02
2.238721e+07	3.416259e+02	3.439413e+02
2.511886e+07	3.226379e+02	3.247024e+02
2.818383e+07	3.046988e+02	3.065395e+02
3.162278e+07	2.877514e+02	2.893926e+02
3.548134e+07	2.717414e+02	2.732048e+02
3.981072e+07	2.566177e+02	2.579224e+02
4.466836e+07	2.423316e+02	2.434948e+02
5.011872e+07	2.288371e+02	2.298743e+02
5.623413e+07	2.160909e+02	2.170156e+02
6.309573e+07	2.040518e+02	2.048762e+02
7.079458e+07	1.926808e+02	1.934158e+02
7.943282e+07	1.819412e+02	1.825965e+02
8.912509e+07	1.717981e+02	1.723824e+02
1.000000e+08	1.622187e+02	1.627397e+02
1.122018e+08	1.531718e+02	1.536363e+02
1.258925e+08	1.446279e+02	1.450421e+02
1.412538e+08	1.365594e+02	1.369287e+02
1.584893e+08	1.289398e+02	1.292692e+02
1.778279e+08	1.217444e+02	1.220381e+02
1.995262e+08	1.149496e+02	1.152114e+02
2.238721e+08	1.085332e+02	1.087667e+02
2.511886e+08	1.024742e+02	1.026825e+02
2.818383e+08	9.675283e+01	9.693858e+01
3.162278e+08	9.135032e+01	9.151600e+01
3.548134e+08	8.624896e+01	8.639674e+01
3.981072e+08	8.143202e+01	8.156386e+01
4.466836e+08	7.688369e+01	7.700131e+01
5.011872e+08	7.258904e+01	7.269399e+01
5.623413e+08	6.853397e+01	6.862762e+01
6.309573e+08	6.470513e+01	6.478871e+01
7.079458e+08	6.108994e+01	6.116455e+01
7.943282e+08	5.767651e+01	5.774312e+01
8.912509e+08	5.445360e+01	5.451308e+01
1.000000e+09	5.141060e+01	5.146373e+01
1.122018e+09	4.853749e+01	4.858495e+01
1.258925e+09	4.582480e+01	4.586721e+01
1.412538e+09	4.326359e+01	4.330150e+01
1.584893e+09	4.084541e+01	4.087931e+01
1.778279e+09	3.856229e+01	3.859261e+01
1.995262e+09	3.640670e+01	3.643383e+01
2.238721e+09	3.437152e+01	3.439582e+01
2.511886e+09	3.245003e+01	3.247180e+01
2.818383e+09	3.063590e+01	3.065541e+01
3.162278e+09	2.892314e+01	2.894063e+01
3.548134e+09	2.730607e+01	2.732178e+01
3.981072e+09	2.577937e+01	2.579348e+01
4.466836e+09	2.433799e+01	2.435067e+01
5.011872e+09	2.297716e+01	2.298857e+01
5.623413e+09	2.169238e+01	2.170267e+01
6.309573e+09	2.047942e+01	2.048870e+01
7.079458e+09	1.933426e+01	1.934263e+01
7.943282e+09	1.825310e+01	1.826068e+01
8.912509e+09	1.723239e+01	1.723925e+01
1.000000e+10	1.626873e+01	1.627496e+01
1.122018e+10	1.535895e+01	1.536461e+01
1.258925e+10	1.450003e+01	1.450518e+01
1.412538e+10	1.368913e+01	1.369383e+01
1.584893e+10	1.292356e+01	1.292786e+01
1.778279e+10	1.220080e+01	1.220475e+01
1.995262e+10	1.151846e+01	1.152208e+01
2.238721e+10	1.087426e+01	1.087760e+01
2.511886e+10	1.026609e+01	1.026917e+01
2.818383e+10	9.691918e+00	9.694775e+00
3.162278e+10	9.149857e+00	9.152512e+00
3.548134e+10	8.638106e+00	8.640581e+00
3.981072e+10	8.154973e+00	8.157288e+00
4.466836e+10	7.698857e+00	7.701028e+00
5.011872e+10	7.268247e+00	7.270291e+00
5.623413e+10	6.861717e+00	6.863647e+00
6.309573e+10	6.477922e+00	6.479750e+00
7.079458e+10	6.115589e+00	6.117326e+00
7.943282e+10	5.773518e+00	5.775175e+00
8.912509e+10	5.450577e+00	5.452161e+00
1.000000e+11	5.145694e+00	5.147214e+00
1.122018e+11	4.857861e+00	4.859323e+00
1.258925e+11	4.586123e+00	4.587533e+00
1.412538e+11	4.329579e+00	4.330943e+00
1.584893e+11	4.087379e+00	4.088702e+00
1.778279e+11	3.858721e+00	3.860007e+00
1.995262e+11	3.642846e+00	3.644098e+00
2.238721e+11	3.439037e+00	3.440260e+00
2.511886e+11	3.246620e+00	3.247815e+00
2.818383e+11	3.064954e+00	3.066125e+00
3.162278e+11	2.893438e+00	2.894587e+00
3.548134e+11	2.731500e+00	2.732629e+00
3.981072e+11	2.578603e+00	2.579714e+00
4.466836e+11	2.434237e+00	2.435332e+00
5.011872e+11	2.297923e+00	2.299002e+00
5.623413e+11	2.169204e+00	2.170269e+00
6.309573e+11	2.047650e+00	2.048703e+00
7.079458e+11	1.932855e+00	1.933895e+00
7.943282e+11	1.824432e+00	1.825461e+00
8.912509e+11	1.722016e+00	1.723035e+00
1.000000e+12	1.625261e+00	1.626269e+00
1.122018e+12	1.533836e+00	1.534834e+00
1.258925e+12	1.447429e+00	1.448417e+00
1.412538e+12	1.365740e+00	1.366719e+00
1.584893e+12	1.288484e+00	1.289453e+00
1.778279e+12	1.215389e+00	1.216348e+00
1.995262e+12	1.146190e+00	1.147139e+00
2.238721e+12	1.080636e+00	1.081573e+00
2.511886e+12	1.018479e+00	1.019406e+00
2.818383e+12	9.594821e-01	9.603963e-01
3.162278e+12	9.034097e-01	9.043108e-01
3.548134e+12	8.500314e-01	8.509180e-01
3.981072e+12	7.991181e-01	7.999889e-01
4.466836e+12	7.504415e-01	7.512949e-01
5.011872e+12	7.037728e-01	7.046068e-01
5.500000e+12	6.674067e-01	6.682235e-01
5.515000e+12	6.663572e-01	6.671735e-01
5.530000e+12	6.653115e-01	6.661273e-01
5.545000e+12	6.642694e-01	6.650847e-01
5.560000e+12	6.632311e-01	6.640458e-01
5.575000e+12	6.621964e-01	6.630106e-01
5.590000e+12	6.611653e-01	6.619790e-01
5.605000e+12	6.601379e-01	6.609510e-01
5.620000e+12	6.591140e-01	6.599266e-01
5.623413e+12	6.588815e-01	6.596940e-01
5.635000e+12	6.580937e-01	6.589058e-01
5.650000e+12	6.570769e-01	6.578885e-01
5.665000e+12	6.560636e-01	6.568747e-01
5.680000e+12	6.550539e-01	6.558644e-01
5.695000e+12	6.540475e-01	6.548576e-01
5.710000e+12	6.530447e-01	6.538542e-01
5.725000e+12	6.520452e-01	6.528542e-01
5.740000e+12	6.510492e-01	6.518576e-01
5.755000e+12	6.500565e-01	6.508644e-01
5.770000e+12	6.490672e-01	6.498746e-01
5.785000e+12	6.480812e-01	6.488881e-01
5.800000e+12	6.470985e-01	6.479048e-01
5.815000e+12	6.461191e-01	6.469249e-01
5.830000e+12	6.451429e-01	6.459483e-01
5.845000e+12	6.441700e-01	6.449748e-01
5.860000e+12	6.432004e-01	6.440046e-01
5.875000e+12	6.422339e-01	6.430376e-01
5.890000e+12	6.412706e-01	6.420738e-01
5.905000e+12	6.403104e-01	6.411132e-01
5.920000e+12	6.393534e-01	6.401556e-01
5.935000e+12	6.383996e-01	6.392012e-01
5.950000e+12	6.374488e-01	6.382499e-01
5.965000e+12	6.365011e-01	6.373017e-01
5.980000e+12	6.355565e-01	6.363566e-01
5.995000e+12	6.346149e-01	6.354144e-01
6.010000e+12	6.336763e-01	6.344753e-01
6.025000e+12	6.327407e-01	6.335392e-01
6.040000e+12	6.318081e-01	6.326061e-01
6.055000e+12	6.308785e-01	6.316760e-01
6.070000e+12	6.299518e-01	6.307488e-01
6.085000e+12	6.290281e-01	6.298245e-01
6.100000e+12	6.281072e-01	6.289031e-01
6.115000e+12	6.271893e-01	6.279847e-01
6.130000e+12	6.262742e-01	6.270691e-01
6.145000e+12	6.253620e-01	6.261563e-01
6.160000e+12	6.244526e-01	6.252464e-01
6.175000e+12	6.235460e-01	6.243393e-01
6.190000e+12	6.226423e-01	6.234350e-01
6.205000e+12	6.217413e-01	6.225335e-01
6.220000e+12	6.208431e-01	6.216348e-01
6.235000e+12	6.199476e-01	6.207388e-01
6.250000e+12	6.190549e-01	6.198456e-01
6.265000e+12	6.181649e-01	6.189551e-01
6.280000e+12	6.172776e-01	6.180672e-01
6.295000e+12	6.163930e-01	6.171821e-01
6.309573e+12	6.155361e-01	6.163247e-01
6.310000e+12	6.155110e-01	6.162996e-01
6.325000e+12	6.146317e-01	6.154198e-01
6.340000e+12	6.137551e-01	6.145426e-01
6.355000e+12	6.128810e-01	6.136681e-01
6.370000e+12	6.120096e-01	6.127961e-01
6.385000e+12	6.111408e-01	6.119268e-01
6.400000e+12	6.102745e-01	6.110600e-01
6.415000e+12	6.094108e-01	6.101958e-01
6.430000e+12	6.085496e-01	6.093341e-01
6.445000e+12	6.076910e-01	6.084749e-01
6.460000e+12	6.068349e-01	6.076183e-01
6.475000e+12	6.059813e-01	6.067642e-01
6.490000e+12	6.051302e-01	6.059125e-01
6.505000e+12	6.042815e-01	6.050634e-01
6.520000e+12	6.034353e-01	6.042166e-01
6.535000e+12	6.025915e-01	6.033724e-01
6.550000e+12	6.017502e-01	6.025305e-01
6.565000e+12	6.009113e-01	6.016911e-01
6.580000e+12	6.000748e-01	6.008540e-01
6.595000e+12	5.992406e-01	6.000194e-01
6.610000e+12	5.984089e-01	5.991871e-01
6.625000e+12	5.975795e-01	5.983572e-01
6.640000e+12	5.967524e-01	5.975296e-01
6.655000e+12	5.959277e-01	5.967044e-01
6.670000e+12	5.951053e-01	5.958814e-01
6.685000e+12	5.942852e-01	5.950608e-01
6.700000e+12	5.934674e-01	5.942425e-01
6.715000e+12	5.926519e-01	5.934265e-01
6.730000e+12	5.918386e-01	5.926127e-01
6.745000e+12	5.910276e-01	5.918011e-01
6.760000e+12	5.902188e-01	5.909919e-01
6.775000e+12	5.894123e-01	5.901848e-01
6.790000e+12	5.886080e-01	5.893800e-01
6.805000e+12	5.878059e-01	5.885773e-01
6.820000e+12	5.870059e-01	5.877769e-01
6.835000e+12	5.862082e-01	5.869786e-01
6.850000e+12	5.854126e-01	5.861825e-01
6.865000e+12	5.846192e-01	5.853886e-01
6.880000e+12	5.838279e-01	5.845968e-01
6.895000e+12	5.830387e-01	5.838071e-01
6.910000e+12	5.822517e-01	5.830196e-01
6.925000e+12	5.814668e-01	5.822341e-01
6.940000e+12	5.806840e-01	5.814508e-01
6.955000e+12	5.799032e-01	5.806695e-01
6.970000e+12	5.791246e-01	5.798904e-01
6.985000e+12	5.783480e-01	5.791132e-01
7.000000e+12	5.775734e-01	5.783382e-01
7.079458e+12	5.735042e-01	5.742663e-01
7.943282e+12	5.325557e-01	5.332882e-01
8.912509e+12	4.924669e-01	4.931667e-01
1.000000e+13	4.530285e-01	4.536923e-01
