Frequency [Hz]	Re(Z)	Im(Z)
1.000000e-03	8.234525e-32	2.241339e-31
1.000000e-01	8.224642e-25	8.764765e-25
1.000000e+00	2.326692e-21	2.305774e-21
1.122018e+00	3.389192e-21	3.346445e-21
1.258925e+00	4.908564e-21	4.824984e-21
1.412538e+00	7.061592e-21	6.903441e-21
1.584893e+00	1.008123e-20	9.790115e-21
1.778279e+00	1.426797e-20	1.374559e-20
1.995262e+00	2.000091e-20	1.908658e-20
2.238721e+00	2.774782e-20	2.618696e-20
2.511886e+00	3.807385e-20	3.547580e-20
2.818383e+00	5.164948e-20	4.743358e-20
3.162278e+00	6.925862e-20	6.258797e-20
3.548134e+00	9.180874e-20	8.151131e-20
3.981072e+00	1.203446e-19	1.048212e-19
4.466836e+00	1.560668e-19	1.331846e-19
5.011872e+00	2.003558e-19	1.673257e-19
5.623413e+00	2.548003e-19	2.080350e-19
6.309573e+00	3.212301e-19	2.561795e-19
7.079458e+00	4.017515e-19	3.127128e-19
7.943282e+00	4.987847e-19	3.786834e-19
8.912509e+00	6.151038e-19	4.552437e-19
1.000000e+01	7.538813e-19	5.436589e-19
1.122018e+01	9.187383e-19	6.453184e-19
1.258925e+01	1.113807e-18	7.617497e-19
1.412538e+01	1.343806e-18	8.946378e-19
1.584893e+01	1.614140e-18	1.045847e-18
1.778279e+01	1.931012e-18	1.217445e-18
1.995262e+01	2.301564e-18	1.411731e-18
2.238721e+01	2.734041e-18	1.631254e-18
2.511886e+01	3.237968e-18	1.878839e-18
2.818383e+01	3.824354e-18	2.157602e-18
3.162278e+01	4.505920e-18	2.470961e-18
3.548134e+01	5.297337e-18	2.822642e-18
3.981072e+01	6.215502e-18	3.216684e-18
4.466836e+01	7.279827e-18	3.657435e-18
5.011872e+01	8.512557e-18	4.149543e-18
5.623413e+01	9.939120e-18	4.697948e-18
6.309573e+01	1.158851e-17	5.307869e-18
7.079458e+01	1.349369e-17	5.984791e-18
7.943282e+01	1.569211e-17	6.734455e-18
8.912509e+01	1.822617e-17	7.562845e-18
1.000000e+02	2.114384e-17	8.476179e-18
1.122018e+02	2.449935e-17	9.480904e-18
1.258925e+02	2.835390e-17	1.058369e-17
1.412538e+02	3.277650e-17	1.179142e-17
1.584893e+02	3.784497e-17	1.311121e-17
1.778279e+02	4.364694e-17	1.455039e-17
1.995262e+02	5.028110e-17	1.611649e-17
2.238721e+02	5.785848e-17	1.781728e-17
2.511886e+02	6.650402e-17	1.966079e-17
2.818383e+02	7.635817e-17	2.165526e-17
3.162278e+02	8.757882e-17	2.380925e-17
3.548134e+02	1.003434e-16	2.613159e-17
3.981072e+02	1.148512e-16	2.863149e-17
4.466836e+02	1.313261e-16	3.131857e-17
5.011872e+02	1.500193e-16	3.420296e-17
5.623413e+02	1.712129e-16	3.729541e-17
6.309573e+02	1.952235e-16	4.060742e-17
7.079458e+02	2.224063e-16	4.415147e-17
7.943282e+02	2.531596e-16	4.794125e-17
8.912509e+02	2.879302e-16	5.199206e-17
1.000000e+03	3.272191e-16	5.632122e-17
1.122018e+03	3.715876e-16	6.094870e-17
1.258925e+03	4.216650e-16	6.589795e-17
1.412538e+03	4.781561e-16	7.119696e-17
1.584893e+03	5.418506e-16	7.687965e-17
1.778279e+03	6.136323e-16	8.298778e-17
1.995262e+03	6.944908e-16	8.957339e-17
2.238721e+03	7.855335e-16	9.670199e-17
2.511886e+03	8.879993e-16	1.044568e-16
2.818383e+03	1.003274e-15	1.129444e-16
3.162278e+03	1.132907e-15	1.223017e-16
3.548134e+03	1.278632e-15	1.327055e-16
3.981072e+03	1.442386e-15	1.443842e-16
4.466836e+03	1.626338e-15	1.576336e-16
5.011872e+03	1.832911e-15	1.728365e-16
5.623413e+03	2.064821e-15	1.904871e-16
6.309573e+03	2.325109e-15	2.112230e-16
7.079458e+03	2.617183e-15	2.358635e-16
7.943282e+03	2.944871e-15	2.654583e-16
8.912509e+03	3.312473e-15	3.013471e-16
1.000000e+04	3.724826e-15	3.452341e-16
1.122018e+04	4.187380e-15	3.992791e-16
1.258925e+04	4.706278e-15	4.662128e-16
1.412538e+04	5.288456e-15	5.494787e-16
1.584893e+04	5.941750e-15	6.534135e-16
1.778279e+04	6.675023e-15	7.834717e-16
1.995262e+04	7.498320e-15	9.465100e-16
2.238721e+04	8.423036e-15	1.151145e-15
2.511886e+04	9.462138e-15	1.408200e-15
2.818383e+04	1.063041e-14	1.731273e-15
3.162278e+04	1.194480e-14	2.137436e-15
3.548134e+04	1.342476e-14	2.648125e-15
3.981072e+04	1.509281e-14	3.290232e-15
4.466836e+04	1.697513e-14	4.097479e-15
5.011872e+04	1.910240e-14	5.112112e-15
5.623413e+04	2.151085e-14	6.386994e-15
6.309573e+04	2.424367e-14	7.988173e-15
7.079458e+04	2.735287e-14	9.998022e-15
7.943282e+04	3.090167e-14	1.251903e-14
8.912509e+04	3.496778e-14	1.567832e-14
1.000000e+05	3.964763e-14	1.963304e-14
1.122018e+05	4.506202e-14	2.457649e-14
1.258925e+05	5.136343e-14	3.074518e-14
1.412538e+05	5.874550e-14	3.842644e-14
1.584893e+05	6.745504e-14	4.796645e-14
1.778279e+05	7.780684e-14	5.977802e-14
1.995262e+05	9.020147e-14	7.434760e-14
2.238721e+05	1.051457e-13	9.224042e-14
2.511886e+05	1.232744e-13	1.141031e-13
2.818383e+05	1.453725e-13	1.406634e-13
3.162278e+05	1.723939e-13	1.727271e-13
3.548134e+05	2.054739e-13	2.111760e-13
3.981072e+05	2.459343e-13	2.569701e-13
4.466836e+05	2.952779e-13	3.111639e-13
5.011872e+05	3.551799e-13	3.749443e-13
5.623413e+05	4.274825e-13	4.496991e-13
6.309573e+05	5.142091e-13	5.371199e-13
7.079458e+05	6.176127e-13	6.393344e-13
7.943282e+05	7.402711e-13	7.590576e-13
8.912509e+05	8.852341e-13	8.997439e-13
1.000000e+06	1.056214e-12	1.065725e-12
1.122018e+06	1.257807e-12	1.262322e-12
1.258925e+06	1.495726e-12	1.495940e-12
1.412538e+06	1.777023e-12	1.774152e-12
1.584893e+06	2.110302e-12	2.105804e-12
1.778279e+06	2.505911e-12	2.501168e-12
1.995262e+06	2.976142e-12	2.972191e-12
2.238721e+06	3.535474e-12	3.532854e-12
2.511886e+06	4.200906e-12	4.199653e-12
2.818383e+06	4.992418e-12	4.992208e-12
3.162278e+06	5.933593e-12	5.933953e-12
3.548134e+06	7.052396e-12	7.052904e-12
3.981072e+06	8.382105e-12	8.382499e-12
4.466836e+06	9.962359e-12	9.962561e-12
5.011872e+06	1.184037e-11	1.184042e-11
5.623413e+06	1.407231e-11	1.407228e-11
6.309573e+06	1.672494e-11	1.672490e-11
7.079458e+06	1.987760e-11	1.987758e-11
7.943282e+06	2.362456e-11	2.362456e-11
8.912509e+06	2.807784e-11	2.807784e-11
1.000000e+07	3.337058e-11	3.337058e-11
1.122018e+07	3.966101e-11	3.966101e-11
1.258925e+07	4.713720e-11	4.713720e-11
1.412538e+07	5.602267e-11	5.602267e-11
1.584893e+07	6.658307e-11	6.658307e-11
1.778279e+07	7.913412e-11	7.913412e-11
1.995262e+07	9.405108e-11	9.405108e-11
2.238721e+07	1.117799e-10	1.117799e-10
2.511886e+07	1.328507e-10	1.328507e-10
2.818383e+07	1.578933e-10	1.578933e-10
3.162278e+07	1.876566e-10	1.876566e-10
3.548134e+07	2.230303e-10	2.230303e-10
3.981072e+07	2.650720e-10	2.650720e-10
4.466836e+07	3.150386e-10	3.150386e-10
5.011872e+07	3.744241e-10	3.744241e-10
5.623413e+07	4.450039e-10	4.450039e-10
6.309573e+07	5.288881e-10	5.288881e-10
7.079458e+07	6.285847e-10	6.285847e-10
7.943282e+07	7.470743e-10	7.470743e-10
8.912509e+07	8.878995e-10	8.878995e-10
1.000000e+08	1.055270e-09	1.055270e-09
1.122018e+08	1.254191e-09	1.254191e-09
1.258925e+08	1.490609e-09	1.490609e-09
1.412538e+08	1.771592e-09	1.771592e-09
1.584893e+08	2.105541e-09	2.105541e-09
1.778279e+08	2.502441e-09	2.502441e-09
1.995262e+08	2.974156e-09	2.974156e-09
2.238721e+08	3.534791e-09	3.534791e-09
2.511886e+08	4.201108e-09	4.201107e-09
2.818383e+08	4.993026e-09	4.993026e-09
3.162278e+08	5.934222e-09	5.934222e-09
3.548134e+08	7.052836e-09	7.052836e-09
3.981072e+08	8.382312e-09	8.382311e-09
4.466836e+08	9.962396e-09	9.962396e-09
5.011872e+08	1.184033e-08	1.184033e-08
5.623413e+08	1.407226e-08	1.407226e-08
6.309573e+08	1.672491e-08	1.672491e-08
7.079458e+08	1.987759e-08	1.987759e-08
7.943282e+08	2.362456e-08	2.362456e-08
8.912509e+08	2.807785e-08	2.807785e-08
1.000000e+09	3.337058e-08	3.337058e-08
1.122018e+09	3.966101e-08	3.966101e-08
1.258925e+09	4.713720e-08	4.713720e-08
1.412538e+09	5.602267e-08	5.602267e-08
1.584893e+09	6.658307e-08	6.658306e-08
1.778279e+09	7.913413e-08	7.913412e-08
1.995262e+09	9.405108e-08	9.405108e-08
2.238721e+09	1.117799e-07	1.117799e-07
2.511886e+09	1.328507e-07	1.328507e-07
2.818383e+09	1.578933e-07	1.578933e-07
3.162278e+09	1.876566e-07	1.876566e-07
3.548134e+09	2.230303e-07	2.230302e-07
3.981072e+09	2.650720e-07	2.650719e-07
4.466836e+09	3.150386e-07	3.150386e-07
5.011872e+09	3.744241e-07	3.744241e-07
5.623413e+09	4.450039e-07	4.450038e-07
6.309573e+09	5.288881e-07	5.288880e-07
7.079458e+09	6.285847e-07	6.285846e-07
7.943282e+09	7.470743e-07	7.470741e-07
8.912509e+09	8.878995e-07	8.878992e-07
1.000000e+10	1.055271e-06	1.055270e-06
1.122018e+10	1.254191e-06	1.254191e-06
1.258925e+10	1.490609e-06	1.490609e-06
1.412538e+10	1.771592e-06	1.771591e-06
1.584893e+10	2.105541e-06	2.105540e-06
1.778279e+10	2.502440e-06	2.502439e-06
1.995262e+10	2.974156e-06	2.974154e-06
2.238721e+10	3.534790e-06	3.534788e-06
2.511886e+10	4.201106e-06	4.201102e-06
2.818383e+10	4.993023e-06	4.993018e-06
3.162278e+10	5.934217e-06	5.934211e-06
3.548134e+10	7.052829e-06	7.052820e-06
3.981072e+10	8.382300e-06	8.382289e-06
4.466836e+10	9.962377e-06	9.962363e-06
5.011872e+10	1.184030e-05	1.184028e-05
5.623413e+10	1.407221e-05	1.407219e-05
6.309573e+10	1.672484e-05	1.672481e-05
7.079458e+10	1.987749e-05	1.987744e-05
7.943282e+10	2.362440e-05	2.362434e-05
8.912509e+10	2.807760e-05	2.807752e-05
1.000000e+11	3.337021e-05	3.337009e-05
1.122018e+11	3.966044e-05	3.966029e-05
1.258925e+11	4.713633e-05	4.713613e-05
1.412538e+11	5.602135e-05	5.602109e-05
1.584893e+11	6.658107e-05	6.658072e-05
1.778279e+11	7.913111e-05	7.913064e-05
1.995262e+11	9.404654e-05	9.404591e-05
2.238721e+11	1.117731e-04	1.117722e-04
2.511886e+11	1.328404e-04	1.328393e-04
2.818383e+11	1.578778e-04	1.578763e-04
3.162278e+11	1.876332e-04	1.876313e-04
3.548134e+11	2.229952e-04	2.229925e-04
3.981072e+11	2.650192e-04	2.650157e-04
4.466836e+11	3.149595e-04	3.149548e-04
5.011872e+11	3.743053e-04	3.742990e-04
5.623413e+11	4.448256e-04	4.448173e-04
6.309573e+11	5.286207e-04	5.286096e-04
7.079458e+11	6.281837e-04	6.281689e-04
7.943282e+11	7.464732e-04	7.464534e-04
8.912509e+11	8.869985e-04	8.869722e-04
1.000000e+12	1.053921e-03	1.053885e-03
1.122018e+12	1.252169e-03	1.252122e-03
1.258925e+12	1.487580e-03	1.487518e-03
1.412538e+12	1.767057e-03	1.766974e-03
1.584893e+12	2.098752e-03	2.098641e-03
1.778279e+12	2.492278e-03	2.492130e-03
1.995262e+12	2.958949e-03	2.958752e-03
2.238721e+12	3.512040e-03	3.511778e-03
2.511886e+12	4.167080e-03	4.166731e-03
2.818383e+12	4.942151e-03	4.941687e-03
3.162278e+12	5.858190e-03	5.857573e-03
3.548134e+12	6.939261e-03	6.938441e-03
3.981072e+12	8.212754e-03	8.211665e-03
4.466836e+12	9.709444e-03	9.707999e-03
5.011872e+12	1.146330e-02	1.146138e-02
5.500000e+12	1.309160e-02	1.308920e-02
5.515000e+12	1.314241e-02	1.313999e-02
5.530000e+12	1.319326e-02	1.319083e-02
5.545000e+12	1.324415e-02	1.324171e-02
5.560000e+12	1.329509e-02	1.329263e-02
5.575000e+12	1.334607e-02	1.334359e-02
5.590000e+12	1.339709e-02	1.339459e-02
5.605000e+12	1.344815e-02	1.344564e-02
5.620000e+12	1.349926e-02	1.349673e-02
5.623413e+12	1.351089e-02	1.350836e-02
5.635000e+12	1.355041e-02	1.354786e-02
5.650000e+12	1.360160e-02	1.359904e-02
5.665000e+12	1.365283e-02	1.365025e-02
5.680000e+12	1.370410e-02	1.370150e-02
5.695000e+12	1.375541e-02	1.375280e-02
5.710000e+12	1.380676e-02	1.380414e-02
5.725000e+12	1.385815e-02	1.385551e-02
5.740000e+12	1.390959e-02	1.390693e-02
5.755000e+12	1.396106e-02	1.395839e-02
5.770000e+12	1.401258e-02	1.400988e-02
5.785000e+12	1.406413e-02	1.406142e-02
5.800000e+12	1.411572e-02	1.411299e-02
5.815000e+12	1.416735e-02	1.416461e-02
5.830000e+12	1.421902e-02	1.421626e-02
5.845000e+12	1.427073e-02	1.426795e-02
5.860000e+12	1.432248e-02	1.431968e-02
5.875000e+12	1.437426e-02	1.437145e-02
5.890000e+12	1.442609e-02	1.442326e-02
5.905000e+12	1.447795e-02	1.447510e-02
5.920000e+12	1.452985e-02	1.452698e-02
5.935000e+12	1.458178e-02	1.457890e-02
5.950000e+12	1.463376e-02	1.463086e-02
5.965000e+12	1.468577e-02	1.468285e-02
5.980000e+12	1.473781e-02	1.473488e-02
5.995000e+12	1.478990e-02	1.478695e-02
6.010000e+12	1.484202e-02	1.483905e-02
6.025000e+12	1.489417e-02	1.489119e-02
6.040000e+12	1.494637e-02	1.494336e-02
6.055000e+12	1.499859e-02	1.499557e-02
6.070000e+12	1.505086e-02	1.504781e-02
6.085000e+12	1.510316e-02	1.510010e-02
6.100000e+12	1.515549e-02	1.515241e-02
6.115000e+12	1.520786e-02	1.520476e-02
6.130000e+12	1.526026e-02	1.525715e-02
6.145000e+12	1.531270e-02	1.530956e-02
6.160000e+12	1.536517e-02	1.536202e-02
6.175000e+12	1.541768e-02	1.541451e-02
6.190000e+12	1.547022e-02	1.546703e-02
6.205000e+12	1.552279e-02	1.551958e-02
6.220000e+12	1.557540e-02	1.557217e-02
6.235000e+12	1.562803e-02	1.562479e-02
6.250000e+12	1.568071e-02	1.567744e-02
6.265000e+12	1.573341e-02	1.573013e-02
6.280000e+12	1.578615e-02	1.578285e-02
6.295000e+12	1.583892e-02	1.583560e-02
6.309573e+12	1.589022e-02	1.588688e-02
6.310000e+12	1.589172e-02	1.588838e-02
6.325000e+12	1.594456e-02	1.594120e-02
6.340000e+12	1.599742e-02	1.599404e-02
6.355000e+12	1.605032e-02	1.604692e-02
6.370000e+12	1.610325e-02	1.609983e-02
6.385000e+12	1.615621e-02	1.615277e-02
6.400000e+12	1.620920e-02	1.620574e-02
6.415000e+12	1.626222e-02	1.625875e-02
6.430000e+12	1.631527e-02	1.631178e-02
6.445000e+12	1.636836e-02	1.636484e-02
6.460000e+12	1.642147e-02	1.641793e-02
6.475000e+12	1.647461e-02	1.647106e-02
6.490000e+12	1.652778e-02	1.652421e-02
6.505000e+12	1.658098e-02	1.657739e-02
6.520000e+12	1.663421e-02	1.663060e-02
6.535000e+12	1.668747e-02	1.668384e-02
6.550000e+12	1.674076e-02	1.673711e-02
6.565000e+12	1.679408e-02	1.679041e-02
6.580000e+12	1.684742e-02	1.684373e-02
6.595000e+12	1.690080e-02	1.689708e-02
6.610000e+12	1.695420e-02	1.695047e-02
6.625000e+12	1.700763e-02	1.700387e-02
6.640000e+12	1.706109e-02	1.705731e-02
6.655000e+12	1.711457e-02	1.711078e-02
6.670000e+12	1.716808e-02	1.716427e-02
6.685000e+12	1.722162e-02	1.721779e-02
6.700000e+12	1.727519e-02	1.727133e-02
6.715000e+12	1.732878e-02	1.732490e-02
6.730000e+12	1.738240e-02	1.737850e-02
6.745000e+12	1.743604e-02	1.743213e-02
6.760000e+12	1.748971e-02	1.748578e-02
6.775000e+12	1.754341e-02	1.753945e-02
6.790000e+12	1.759713e-02	1.759315e-02
6.805000e+12	1.765088e-02	1.764688e-02
6.820000e+12	1.770465e-02	1.770063e-02
6.835000e+12	1.775845e-02	1.775441e-02
6.850000e+12	1.781228e-02	1.780821e-02
6.865000e+12	1.786612e-02	1.786204e-02
6.880000e+12	1.792000e-02	1.791589e-02
6.895000e+12	1.797389e-02	1.796976e-02
6.910000e+12	1.802781e-02	1.802366e-02
6.925000e+12	1.808176e-02	1.807759e-02
6.940000e+12	1.813573e-02	1.813153e-02
6.955000e+12	1.818972e-02	1.818550e-02
6.970000e+12	1.824373e-02	1.823950e-02
6.985000e+12	1.829777e-02	1.829351e-02
7.000000e+12	1.835183e-02	1.834755e-02
7.079458e+12	1.863858e-02	1.863418e-02
7.943282e+12	2.178918e-02	2.178342e-02
8.912509e+12	2.536604e-02	2.535851e-02
1.000000e+13	2.937655e-02	2.936676e-02
