Frequency [Hz]	Re(Zlong) [Ohm]	Im(Zlong) [Ohm]
1.00000000e-03 2.82521713e-12 1.28155002e-10
1.00000000e-01 1.20470031e-11 1.23078810e-08
1.00000000e+00 2.16824261e-11 1.23076682e-07
1.12201845e+00 2.42014915e-11 1.38094303e-07
1.25892541e+00 2.73728033e-11 1.54944351e-07
1.41253754e+00 3.13652457e-11 1.73850416e-07
1.58489319e+00 3.63914307e-11 1.95063370e-07
1.77827941e+00 4.27190210e-11 2.18864696e-07
1.99526231e+00 5.06849839e-11 2.45570222e-07
2.23872114e+00 6.07135359e-11 2.75534314e-07
2.51188643e+00 7.33387338e-11 3.09154577e-07
2.81838293e+00 8.92329151e-11 3.46877131e-07
3.16227766e+00 1.09242502e-10 3.89202528e-07
3.54813389e+00 1.34433077e-10 4.36692401e-07
3.98107171e+00 1.66146126e-10 4.89976908e-07
4.46683592e+00 2.06070483e-10 5.49763099e-07
5.01187234e+00 2.56332257e-10 6.16844294e-07
5.62341325e+00 3.19608060e-10 6.92110615e-07
6.30957344e+00 3.99267541e-10 7.76560788e-07
7.07945784e+00 4.99552828e-10 8.71315402e-07
7.94328235e+00 6.25804431e-10 9.77631774e-07
8.91250938e+00 7.84745630e-10 1.09692063e-06
1.00000000e+01 9.84840501e-10 1.23076482e-06
1.12201845e+01 1.23674463e-09 1.38094031e-06
1.25892541e+01 1.55387251e-09 1.54943977e-06
1.41253754e+01 1.95311186e-09 1.73849897e-06
1.58489319e+01 2.45572284e-09 1.95062645e-06
1.77827941e+01 3.08847004e-09 2.18863679e-06
1.99526231e+01 3.88504754e-09 2.45568792e-06
2.23872114e+01 4.88787281e-09 2.75532299e-06
2.51188643e+01 6.15034486e-09 3.09151736e-06
2.81838293e+01 7.73968687e-09 3.46873122e-06
3.16227766e+01 9.74052431e-09 3.89196870e-06
3.54813389e+01 1.22593888e-08 4.36684412e-06
3.98107171e+01 1.54303868e-08 4.89965626e-06
4.46683592e+01 1.94223347e-08 5.49747166e-06
5.01187234e+01 2.44477372e-08 6.16821792e-06
5.62341325e+01 3.07740871e-08 6.92078832e-06
6.30957344e+01 3.87380825e-08 7.76515897e-06
7.07945784e+01 4.87635130e-08 8.71251996e-06
7.94328235e+01 6.13837587e-08 9.77542216e-06
8.91250938e+01 7.72700844e-08 1.09679413e-05
1.00000000e+02 9.72672126e-08 1.23058615e-05
1.12201845e+02 1.22438031e-07 1.38068797e-05
1.25892541e+02 1.54119758e-07 1.54908337e-05
1.41253754e+02 1.93994461e-07 1.73799561e-05
1.58489319e+02 2.44177531e-07 1.94991556e-05
1.77827941e+02 3.07328602e-07 2.18763287e-05
1.99526231e+02 3.86790430e-07 2.45427025e-05
2.23872114e+02 4.86762560e-07 2.75332123e-05
2.51188643e+02 6.12518081e-07 3.08869110e-05
2.81838293e+02 7.70673573e-07 3.46474134e-05
3.16227766e+02 9.69524296e-07 3.88633697e-05
3.54813389e+02 1.21945888e-06 4.35889642e-05
3.98107171e+02 1.53346992e-06 4.88844282e-05
4.46683592e+02 1.92777883e-06 5.48165530e-05
5.01187234e+02 2.42259445e-06 6.14591755e-05
5.62341325e+02 3.04302453e-06 6.88936054e-05
6.30957344e+02 3.82015567e-06 7.72089401e-05
7.07945784e+02 4.79230924e-06 8.65022014e-05
7.94328235e+02 6.00646415e-06 9.68782013e-05
8.91250938e+02 7.51980904e-06 1.08449022e-04
1.00000000e+03 9.40134020e-06 1.21332968e-04
1.12201845e+03 1.17333512e-05 1.35652831e-04
1.25892541e+03 1.46125601e-05 1.51533310e-04
1.41253754e+03 1.81504864e-05 1.69097471e-04
1.58489319e+03 2.24725312e-05 1.88462233e-04
1.77827941e+03 2.77150502e-05 2.09733092e-04
1.99526231e+03 3.40196001e-05 2.32998623e-04
2.23872114e+03 4.15235755e-05 2.58325842e-04
2.51188643e+03 5.03467691e-05 2.85758094e-04
2.81838293e+03 6.05741267e-05 3.15317733e-04
3.16227766e+03 7.22361991e-05 3.47016107e-04
3.54813389e+03 8.52903665e-05 3.80872896e-04
3.98107171e+03 9.96073896e-05 4.16945333e-04
4.46683592e+03 1.14968414e-04 4.55365234e-04
5.01187234e+03 1.31076453e-04 4.96378726e-04
5.62341325e+03 1.47583275e-04 5.40381330e-04
6.30957344e+03 1.64128316e-04 5.87940948e-04
7.07945784e+03 1.80382335e-04 6.39804046e-04
7.94328235e+03 1.96086965e-04 6.96884899e-04
8.91250938e+03 2.11082762e-04 7.60242485e-04
1.00000000e+04 2.25322112e-04 8.31052335e-04
1.12201845e+04 2.38867591e-04 9.10580633e-04
1.25892541e+04 2.51879358e-04 1.00016574e-03
1.41253754e+04 2.64596151e-04 1.10120938e-03
1.58489319e+04 2.77313748e-04 1.21517730e-03
1.77827941e+04 2.90363178e-04 1.34360815e-03
1.99526231e+04 3.04089421e-04 1.48812917e-03
2.23872114e+04 3.18830446e-04 1.65047840e-03
2.51188643e+04 3.34896386e-04 1.83253391e-03
2.81838293e+04 3.52549555e-04 2.03635178e-03
3.16227766e+04 3.71987472e-04 2.26421415e-03
3.54813389e+04 3.93332452e-04 2.51868794e-03
3.98107171e+04 4.16631821e-04 2.80269184e-03
4.46683592e+04 4.41871502e-04 3.11956729e-03
5.01187234e+04 4.69002499e-04 3.47314662e-03
5.62341325e+04 4.97975484e-04 3.86781299e-03
6.30957344e+04 5.28775303e-04 4.30854972e-03
7.07945784e+04 5.61446548e-04 4.80098239e-03
7.94328235e+04 5.96104283e-04 5.35142189e-03
8.91250938e+04 6.32929392e-04 5.96691885e-03
1.00000000e+05 6.72153599e-04 6.65533817e-03
1.12201845e+05 7.14042471e-04 7.42545825e-03
1.25892541e+05 7.58884514e-04 8.28709388e-03
1.41253754e+05 8.06991001e-04 9.25123829e-03
1.58489319e+05 8.58706439e-04 1.03302193e-02
1.77827941e+05 9.14426004e-04 1.15378672e-02
1.99526231e+05 9.74615456e-04 1.28896966e-02
2.23872114e+05 1.03983114e-03 1.44031068e-02
2.51188643e+05 1.11074067e-03 1.60976067e-02
2.81838293e+05 1.18814712e-03 1.79950694e-02
3.16227766e+05 1.27301984e-03 2.01200192e-02
3.54813389e+05 1.36653417e-03 2.24999539e-02
3.98107171e+05 1.47012206e-03 2.51657053e-02
4.46683592e+05 1.58553545e-03 2.81518438e-02
5.01187234e+05 1.71492562e-03 3.14971297e-02
5.62341325e+05 1.86094259e-03 3.52450199e-02
6.30957344e+05 2.02685987e-03 3.94442343e-02
7.07945784e+05 2.21673100e-03 4.41493893e-02
7.94328235e+05 2.43558620e-03 4.94217060e-02
8.91250938e+05 2.68967903e-03 5.53298000e-02
1.00000000e+06 2.98679628e-03 6.19505632e-02
1.12201845e+06 3.33664678e-03 6.93701445e-02
1.25892541e+06 3.75134959e-03 7.76850396e-02
1.41253754e+06 4.24604663e-03 8.70032989e-02
1.58489319e+06 4.83967126e-03 9.74458619e-02
1.77827941e+06 5.55591217e-03 1.09148024e-01
1.99526231e+06 6.42442155e-03 1.22261043e-01
2.23872114e+06 7.48232836e-03 1.36953882e-01
2.51188643e+06 8.77613183e-03 1.53415083e-01
2.81838293e+06 1.03640681e-02 1.71854762e-01
3.16227766e+06 1.23190635e-02 1.92506680e-01
3.54813389e+06 1.47324127e-02 2.15630354e-01
3.98107171e+06 1.77183473e-02 2.41513110e-01
4.46683592e+06 2.14196944e-02 2.70471964e-01
5.01187234e+06 2.60148521e-02 3.02855122e-01
5.62341325e+06 3.17263471e-02 3.39042852e-01
6.30957344e+06 3.88312567e-02 3.79447309e-01
7.07945784e+06 4.76737904e-02 4.24510784e-01
7.94328235e+06 5.86802956e-02 4.74701612e-01
8.91250938e+06 7.23768721e-02 5.30506731e-01
1.00000000e+07 8.94096001e-02 5.92419529e-01
1.12201845e+07 1.10567059e-01 6.60921263e-01
1.25892541e+07 1.36804268e-01 7.36453897e-01
1.41253754e+07 1.69266320e-01 8.19381835e-01
1.58489319e+07 2.09308704e-01 9.09939829e-01
1.77827941e+07 2.58509553e-01 1.00816453e+00
1.99526231e+07 3.18666794e-01 1.11380812e+00
2.23872114e+07 3.91770621e-01 1.22623458e+00
2.51188643e+07 4.79939357e-01 1.34430343e+00
2.81838293e+07 5.85305718e-01 1.46625174e+00
3.16227766e+07 7.09842404e-01 1.58959422e+00
3.54813389e+07 8.55123035e-01 1.71107056e+00
3.98107171e+07 1.02202863e+00 1.82667704e+00
4.46683592e+07 1.21043124e+00 1.93182002e+00
5.01187234e+07 1.41891129e+00 2.02161603e+00
5.62341325e+07 1.64458422e+00 2.09133355e+00
6.30957344e+07 1.88311318e+00 2.13692700e+00
7.07945784e+07 2.12895595e+00 2.15556870e+00
7.94328235e+07 2.37583775e+00 2.14605958e+00
8.91250938e+07 2.61737399e+00 2.10901328e+00
1.00000000e+08 2.84771640e+00 2.04676320e+00
1.12201845e+08 3.06208816e+00 1.96301793e+00
1.25892541e+08 3.25711129e+00 1.86235616e+00
1.41253754e+08 3.43089483e+00 1.74968018e+00
1.58489319e+08 3.58291578e+00 1.62973465e+00
1.77827941e+08 3.71376345e+00 1.50675589e+00
1.99526231e+08 3.82482599e+00 1.38427079e+00
2.23872114e+08 3.91798361e+00 1.26502838e+00
2.51188643e+08 3.99534858e+00 1.15102915e+00
2.81838293e+08 4.05906855e+00 1.04361351e+00
3.16227766e+08 4.11119335e+00 9.43577033e-01
3.54813389e+08 4.15359567e+00 8.51289609e-01
3.98107171e+08 4.18793276e+00 7.66804695e-01
4.46683592e+08 4.21563680e+00 6.89952191e-01
5.01187234e+08 4.23792317e+00 6.20413178e-01
5.62341325e+08 4.25580894e+00 5.57777544e-01
6.30957344e+08 4.27013604e+00 5.01586840e-01
7.07945784e+08 4.28159550e+00 4.51365104e-01
7.94328235e+08 4.29075077e+00 4.06640304e-01
8.91250938e+08 4.29805883e+00 3.66958679e-01
1.00000000e+09 4.30388885e+00 3.31893867e-01
1.12201845e+09 4.30853813e+00 3.01052308e-01
1.25892541e+09 4.31224550e+00 2.74076038e-01
1.41253754e+09 4.31520254e+00 2.50643733e-01
1.58489319e+09 4.31756272e+00 2.30470612e-01
1.77827941e+09 4.31944902e+00 2.13307642e-01
1.99526231e+09 4.32095996e+00 1.98940377e-01
2.23872114e+09 4.32217466e+00 1.87187636e-01
2.51188643e+09 4.32315680e+00 1.77900188e-01
2.81838293e+09 4.32395796e+00 1.70959546e-01
3.16227766e+09 4.32462027e+00 1.66276940e-01
3.54813389e+09 4.32517856e+00 1.63792526e-01
3.98107171e+09 4.32566224e+00 1.63474854e-01
4.46683592e+09 4.32609680e+00 1.65320632e-01
5.01187234e+09 4.32650516e+00 1.69354794e-01
5.62341325e+09 4.32690888e+00 1.75630882e-01
6.30957344e+09 4.32732930e+00 1.84231769e-01
7.07945784e+09 4.32778863e+00 1.95270714e-01
7.94328235e+09 4.32831114e+00 2.08892762e-01
8.91250938e+09 4.32892443e+00 2.25276497e-01
1.00000000e+10 4.32966084e+00 2.44636130e-01
1.12201845e+10 4.33055912e+00 2.67223903e-01
1.25892541e+10 4.33166636e+00 2.93332754e-01
1.41253754e+10 4.33304034e+00 3.23299130e-01
1.58489319e+10 4.33475225e+00 3.57505707e-01
1.77827941e+10 4.33688988e+00 3.96383549e-01
1.99526231e+10 4.33956111e+00 4.40412736e-01
2.23872114e+10 4.34289740e+00 4.90119295e-01
2.51188643e+10 4.34705590e+00 5.46063393e-01
2.81838293e+10 4.35221647e+00 6.08805569e-01
3.16227766e+10 4.35856165e+00 6.78811195e-01
3.54813389e+10 4.36619302e+00 7.56146470e-01
3.98107171e+10 4.37474330e+00 8.39225259e-01
4.46683592e+10 4.38036276e+00 9.15782404e-01
5.01187234e+10 4.22404268e+00 2.61643828e+00
5.62341325e+10 4.45065887e+00 1.26210002e+00
6.30957344e+10 4.47173953e+00 1.38244561e+00
7.07945784e+10 4.50404078e+00 1.53556783e+00
7.94328235e+10 4.54549538e+00 1.71027045e+00
8.91250938e+10 4.59399531e+00 1.90053299e+00
1.00000000e+11 4.57241171e+00 4.25883802e+00
1.12201845e+11 4.78232274e+00 2.42208854e+00
1.25892541e+11 4.88554963e+00 2.68966908e+00
1.41253754e+11 5.00883822e+00 2.98384534e+00
1.58489319e+11 5.24109432e+00 3.37230925e+00
1.77827941e+11 5.44517494e+00 3.73289200e+00
1.99526231e+11 4.61788216e+00 4.10534564e+00
2.23872114e+11 6.11168332e+00 4.60201916e+00
2.51188643e+11 6.77873026e+00 5.11857763e+00
2.81838293e+11 7.15750418e+00 5.58470225e+00
3.16227766e+11 7.92116091e+00 6.08914545e+00
3.54813389e+11 8.89743051e+00 6.55314574e+00
3.98107171e+11 9.89944988e+00 7.15219952e+00
4.46683592e+11 1.14569143e+01 7.36663328e+00
5.01187234e+11 1.33460483e+01 7.11772555e+00
5.62341325e+11 1.54630145e+01 6.80561833e+00
6.30957344e+11 1.78929793e+01 5.62464289e+00
7.07945784e+11 2.02523167e+01 3.34239091e+00
7.94328235e+11 2.20555236e+01 -1.86948722e-01
8.91250938e+11 2.22772016e+01 -4.65755801e+00
1.00000000e+12 2.04904181e+01 -8.92982584e+00
1.12201845e+12 1.71033539e+01 -1.22133223e+01
1.25892541e+12 1.31578987e+01 -1.36083278e+01
1.41253754e+12 9.58762036e+00 -1.35476395e+01
1.58489319e+12 6.78821470e+00 -1.26390569e+01
1.77827941e+12 4.75218430e+00 -1.13816883e+01
1.99526231e+12 3.32349966e+00 -1.00617388e+01
2.23872114e+12 2.33298786e+00 -8.81725838e+00
2.51188643e+12 1.64853979e+00 -7.69827476e+00
2.81838293e+12 1.17337051e+00 -6.71482120e+00
3.16227766e+12 8.40986125e-01 -5.85872053e+00
3.54813389e+12 6.06588735e-01 -5.11567249e+00
3.98107171e+12 4.39898415e-01 -4.47051963e+00
4.46683592e+12 3.20509656e-01 -3.90903613e+00
5.01187234e+12 2.34420591e-01 -3.41893084e+00
5.50000000e+12 1.82528859e-01 -3.06815655e+00
5.51500000e+12 1.81200338e-01 -3.05842548e+00
5.53000000e+12 1.79885263e-01 -3.04875077e+00
5.54500000e+12 1.78584827e-01 -3.03913146e+00
5.56000000e+12 1.77294755e-01 -3.02956817e+00
5.57500000e+12 1.76019117e-01 -3.02005907e+00
5.59000000e+12 1.74756355e-01 -3.01060416e+00
5.60500000e+12 1.73505944e-01 -3.00120339e+00
5.62000000e+12 1.72268242e-01 -2.99185561e+00
5.62341325e+12 1.71988325e-01 -2.98973593e+00
5.63500000e+12 1.71042859e-01 -2.98256071e+00
5.65000000e+12 1.69829411e-01 -2.97331851e+00
5.66500000e+12 1.68628238e-01 -2.96412786e+00
5.68000000e+12 1.67438856e-01 -2.95498882e+00
5.69500000e+12 1.66262361e-01 -2.94590094e+00
5.71000000e+12 1.65094906e-01 -2.93686369e+00
5.72500000e+12 1.63940184e-01 -2.92787656e+00
5.74000000e+12 1.62796791e-01 -2.91893918e+00
5.75500000e+12 1.61664240e-01 -2.91005140e+00
5.77000000e+12 1.60542898e-01 -2.90121236e+00
5.78500000e+12 1.59432400e-01 -2.89242187e+00
5.80000000e+12 1.58332395e-01 -2.88367972e+00
5.81500000e+12 1.57243233e-01 -2.87498503e+00
5.83000000e+12 1.56164457e-01 -2.86633775e+00
5.84500000e+12 1.55096967e-01 -2.85773781e+00
5.86000000e+12 1.54037599e-01 -2.84918375e+00
5.87500000e+12 1.52989395e-01 -2.84067615e+00
5.89000000e+12 1.51951194e-01 -2.83221432e+00
5.90500000e+12 1.50922557e-01 -2.82379807e+00
5.92000000e+12 1.49903829e-01 -2.81542672e+00
5.93500000e+12 1.48894684e-01 -2.80710008e+00
5.95000000e+12 1.47894807e-01 -2.79881788e+00
5.96500000e+12 1.46904527e-01 -2.79057946e+00
5.98000000e+12 1.45923431e-01 -2.78238471e+00
5.99500000e+12 1.44952153e-01 -2.77423380e+00
6.01000000e+12 1.43988400e-01 -2.76612468e+00
6.02500000e+12 1.43034365e-01 -2.75805865e+00
6.04000000e+12 1.42089189e-01 -2.75003484e+00
6.05500000e+12 1.41152490e-01 -2.74205299e+00
6.07000000e+12 1.40224571e-01 -2.73411263e+00
6.08500000e+12 1.39305149e-01 -2.72621350e+00
6.10000000e+12 1.38393950e-01 -2.71835534e+00
6.11500000e+12 1.37491262e-01 -2.71053766e+00
6.13000000e+12 1.36596725e-01 -2.70276027e+00
6.14500000e+12 1.35710674e-01 -2.69502350e+00
6.16000000e+12 1.34831770e-01 -2.68732504e+00
6.17500000e+12 1.33961265e-01 -2.67966655e+00
6.19000000e+12 1.33098630e-01 -2.67204707e+00
6.20500000e+12 1.32243539e-01 -2.66446634e+00
6.22000000e+12 1.31396248e-01 -2.65692400e+00
6.23500000e+12 1.30556514e-01 -2.64941977e+00
6.25000000e+12 1.29724106e-01 -2.64195340e+00
6.26500000e+12 1.28899262e-01 -2.63452452e+00
6.28000000e+12 1.28081677e-01 -2.62713291e+00
6.29500000e+12 1.27271410e-01 -2.61977889e+00
6.30957344e+12 1.26490737e-01 -2.61266789e+00
6.31000000e+12 1.26467994e-01 -2.61246030e+00
6.32500000e+12 1.25671817e-01 -2.60517873e+00
6.34000000e+12 1.24882653e-01 -2.59793330e+00
6.35500000e+12 1.24100226e-01 -2.59072372e+00
6.37000000e+12 1.23324748e-01 -2.58354971e+00
6.38500000e+12 1.22556010e-01 -2.57641103e+00
6.40000000e+12 1.21793822e-01 -2.56930741e+00
6.41500000e+12 1.21038372e-01 -2.56223857e+00
6.43000000e+12 1.20289407e-01 -2.55520426e+00
6.44500000e+12 1.19546786e-01 -2.54820473e+00
6.46000000e+12 1.18810678e-01 -2.54123821e+00
6.47500000e+12 1.18080841e-01 -2.53430596e+00
6.49000000e+12 1.17357269e-01 -2.52740724e+00
6.50500000e+12 1.16639737e-01 -2.52054177e+00
6.52000000e+12 1.15928407e-01 -2.51370934e+00
6.53500000e+12 1.15223109e-01 -2.50690970e+00
6.55000000e+12 1.14523684e-01 -2.50014260e+00
6.56500000e+12 1.13830277e-01 -2.49340780e+00
6.58000000e+12 1.13142680e-01 -2.48670509e+00
6.59500000e+12 1.12460649e-01 -2.48003456e+00
6.61000000e+12 1.11784695e-01 -2.47339493e+00
6.62500000e+12 1.11114235e-01 -2.46678705e+00
6.64000000e+12 1.10449389e-01 -2.46021033e+00
6.65500000e+12 1.09789974e-01 -2.45366451e+00
6.67000000e+12 1.09136109e-01 -2.44714943e+00
6.68500000e+12 1.08487657e-01 -2.44066483e+00
6.70000000e+12 1.07844486e-01 -2.43421049e+00
6.71500000e+12 1.07206703e-01 -2.42778623e+00
6.73000000e+12 1.06574140e-01 -2.42139181e+00
6.74500000e+12 1.05946528e-01 -2.41502723e+00
6.76000000e+12 1.05324478e-01 -2.40869165e+00
6.77500000e+12 1.04707311e-01 -2.40238551e+00
6.79000000e+12 1.04095185e-01 -2.39610839e+00
6.80500000e+12 1.03487956e-01 -2.38986004e+00
6.82000000e+12 1.02885708e-01 -2.38364032e+00
6.83500000e+12 1.02288328e-01 -2.37744902e+00
6.85000000e+12 1.01695710e-01 -2.37128589e+00
6.86500000e+12 1.01107928e-01 -2.36515081e+00
6.88000000e+12 1.00524848e-01 -2.35904354e+00
6.89500000e+12 9.99462239e-02 -2.35296400e+00
6.91000000e+12 9.93726195e-02 -2.34691169e+00
6.92500000e+12 9.88034056e-02 -2.34088673e+00
6.94000000e+12 9.82387316e-02 -2.33488885e+00
6.95500000e+12 9.76784830e-02 -2.32891780e+00
6.97000000e+12 9.71227149e-02 -2.32297348e+00
6.98500000e+12 9.65713364e-02 -2.31705567e+00
7.00000000e+12 9.60242625e-02 -2.31116416e+00
7.07945784e+12 9.31972138e-02 -2.28038783e+00
7.94328235e+12 6.87495901e-02 -1.98676772e+00
8.91250938e+12 5.07461600e-02 -1.72668451e+00
1.00000000e+13 3.74574128e-02 -1.49584855e+00
